T0874 1012:026 SEGGER J-Link V6.48a Log File (0000ms, 17203ms total)
T0874 1012:026 DLL Compiled: Jul 30 2019 15:16:09 (0000ms, 17203ms total)
T0874 1012:026 Logging started @ 2021-06-10 04:03 (0000ms, 17203ms total)
T0874 1012:041 JLINK_ExecCommand("Device = ATSAMD21G18A", ...). Device "ATSAMD21G18" selected.  returns 0x00 (0001ms, 17204ms total)
T0874 1012:048 JLINK_TIF_Select(JLINKARM_TIF_SWD)  returns 0x00 (0001ms, 17205ms total)
T0874 1012:049 JLINK_SetSpeed(4000) (0000ms, 17205ms total)
T0874 1012:049 JLINK_ResetPullsRESET(OFF) (0000ms, 17205ms total)
T0874 1012:049 JLINK_Connect()InitTarget() >0x10B TIF>Found SW-DP with ID 0x0BC11477 >0x0D TIF> >0x28 TIF> >0x0D TIF> >0x28 TIF> >0x0D TIF> >0x28 TIF> >0x0D TIF> >0x28 TIF> >0x0D TIF> >0x21 TIF> >0x0D TIF> >0x28 TIF>Scanning AP map to find all available APs >0x0D TIF> >0x28 TIF> >0x0D TIF> >0x21 TIF> >0x0D TIF> >0x21 TIF> >0x0D TIF> >0x28 TIF> >0x0D TIF> >0x21 TIF> >0x0D TIF> >0x21 TIF>AP[1]: Stopped AP scan as end of AP map has been reachedAP[0]: AHB-AP (IDR: 0x04770031)
Iterating through AP map to find AHB-AP to use >0x42 TIF> >0x28 TIF> >0x0D TIF> >0x28 TIF> >0x0D TIF> >0x21 TIF> >0x0D TIF> >0x21 TIF> >0x42 TIF> >0x28 TIF> >0x0D TIF> >0x28 TIF> >0x0D TIF> >0x28 TIF> >0x0D TIF> >0x21 TIF> >0x0D TIF> >0x21 TIF>AP[0]: Core foundAP[0]: AHB-AP ROM base: 0x41003000 >0x0D TIF> >0x28 TIF> >0x0D TIF> >0x28 TIF> >0x0D TIF> >0x28 TIF> >0x0D TIF> >0x21 TIF> >0x0D TIF> >0x21 TIF>CPUID register: 0x410CC601. Implementer code: 0x41 (ARM)Found Cortex-M0 r0p1, Little endian.
 -- Max. mem block: 0x00001548 -- CPU_ReadMem(4 bytes @ 0xE000EDF0) -- CPU_WriteMem(4 bytes @ 0xE000EDF0) -- CPU_ReadMem(4 bytes @ 0xE0002000)FPUnit: 4 code (BP) slots and 0 literal slots -- CPU_ReadMem(4 bytes @ 0xE000EDFC) -- CPU_WriteMem(4 bytes @ 0xE000EDFC) -- CPU_ReadMem(4 bytes @ 0xE0001000) -- CPU_WriteMem(4 bytes @ 0xE0001000)CoreSight components:ROMTbl[0] @ 41003000 -- CPU_ReadMem(16 bytes @ 0x41003000) -- CPU_ReadMem(16 bytes @ 0xE00FFFF0) -- CPU_ReadMem(16 bytes @ 0xE00FFFE0)
ROMTbl[0][0]: E00FF000, CID: B105100D, PID: 000BB4C0 ROM TableROMTbl[1] @ E00FF000 -- CPU_ReadMem(16 bytes @ 0xE00FF000) -- CPU_ReadMem(16 bytes @ 0xE000EFF0) -- CPU_ReadMem(16 bytes @ 0xE000EFE0)ROMTbl[1][0]: E000E000, CID: B105E00D, PID: 000BB008 SCS -- CPU_ReadMem(16 bytes @ 0xE0001FF0) -- CPU_ReadMem(16 bytes @ 0xE0001FE0)ROMTbl[1][1]: E0001000, CID: B105E00D, PID: 000BB00A DWT -- CPU_ReadMem(16 bytes @ 0xE0002FF0) -- CPU_ReadMem(16 bytes @ 0xE0002FE0)
ROMTbl[1][2]: E0002000, CID: B105E00D, PID: 000BB00B FPB -- CPU_ReadMem(16 bytes @ 0x41006FF0) -- CPU_ReadMem(16 bytes @ 0x41006FE0)ROMTbl[0][1]: 41006000, CID: B105900D, PID: 001BB932 MTB-M0+  returns 0x00 (0121ms, 17326ms total)
T0874 1012:170 JLINK_Halt()  returns 0x00 (0003ms, 17329ms total)
T0874 1012:174 JLINK_JTAG_GetDeviceID(DeviceIndex = 0)  returns 0x00 (0000ms, 17329ms total)
T0874 1012:174 JLINK_ReadMemU32(0x41002018, 0x0001 Items, ...) -- CPU_ReadMem(4 bytes @ 0x41002018) - Data: 05 03 01 10  returns 1 (0000ms, 17329ms total)
T3FB4 1012:184 JLINK_IsHalted()  returns TRUE (0000ms, 17329ms total)
T3FB4 1012:184 JLINK_GetMOEs(...) -- CPU_ReadMem(4 bytes @ 0xE000ED30)  returns 0x01 (0000ms, 17329ms total)
T3FB4 1012:184 JLINK_ReadReg(R15 (PC))  returns 0x00002534 (0000ms, 17329ms total)
T0874 1012:203 JLINK_BeginDownload(Flags = 0x00) (0000ms, 17329ms total)
T0874 1012:203 JLINK_WriteMem(0x00002000, 0x2C88 Bytes, ...) - Data: 00 00 00 00 B9 20 00 00 71 21 00 00 71 21 00 00 ... -- Read from flash cache (11400 bytes @ 0x00002000)  returns 0x2C88 (0000ms, 17329ms total)
T0874 1012:203 JLINK_WriteMem(0x00004C88, 0x06F8 Bytes, ...) - Data: 00 00 00 20 00 08 00 20 00 08 00 20 00 40 00 00 ... -- Read from flash cache (1784 bytes @ 0x00004C88)  returns 0x6F8 (0000ms, 17329ms total)
T0874 1012:211 JLINK_EndDownload() -- CPU_ReadMem(4 bytes @ 0x41006004) -- CPU_ReadMem(4 bytes @ 0xE000ED90) -- -------------------------------------- -- Start of determining dirty areas in flash cache -- End of determining dirty areas -- Start of preparing flash programming -- Calculating RAM usage -- RAM usage = 2804 Bytes -- Preserving CPU registers -- Preparing memory -- Preparing target -- Downloading RAMCode -- Checking target RAM -- Preparing RAMCode -- End of preparing flash programming
 -- CPU speed could not be measured. -- Start of comparing flash -- CRC check was estimated as fastest method -- Comparing range 0x2000 - 0x53FF (52 Sectors, 13 KB), using multi-block CRC calculation -- CRC does not match for sectors 1, 5-7, 9-14, 17-24, 26-27, 29-51 -- Comparing range 0x2000 - 0x20FF (1 Sector, 256 Bytes), using alternative multi-block CRC calculation -- All CRCs match -- Comparing range 0x2200 - 0x24FF (3 Sectors, 768 Bytes), using alternative multi-block CRC calculation
 -- All CRCs match -- Comparing range 0x2800 - 0x28FF (1 Sector, 256 Bytes), using alternative multi-block CRC calculation -- All CRCs match -- Comparing range 0x2F00 - 0x30FF (2 Sectors, 512 Bytes), using alternative multi-block CRC calculation -- All CRCs match -- Comparing range 0x3900 - 0x39FF (1 Sector, 256 Bytes), using alternative multi-block CRC calculation -- All CRCs match -- Comparing range 0x3C00 - 0x3CFF (1 Sector, 256 Bytes), using alternative multi-block CRC calculation -- All CRCs match
 -- End of comparing flash -- Start of erasing sectors -- Erasing range 0x00002100 - 0x000021FF (  1 Sector, 256 Bytes) -- Erasing range 0x00002500 - 0x000027FF (  3 Sectors, 768 Bytes) -- Erasing range 0x00002900 - 0x00002EFF (  6 Sectors, 1 KB) -- Erasing range 0x00003100 - 0x000038FF (  8 Sectors, 2 KB) -- Erasing range 0x00003A00 - 0x00003BFF (  2 Sectors, 512 Bytes) -- Erasing range 0x00003D00 - 0x000053FF ( 23 Sectors, 5 KB) -- End of erasing sectors -- Start of flash programming
 -- Programming range 0x00002100 - 0x000021FF (  1 Sector, 256 Bytes) -- Programming range 0x00002500 - 0x000027FF (  3 Sectors, 768 Bytes) -- Programming range 0x00002900 - 0x00002EFF (  6 Sectors, 1 KB) -- Programming range 0x00003100 - 0x000038FF (  8 Sectors, 2 KB) -- Programming range 0x00003A00 - 0x00003BFF (  2 Sectors, 512 Bytes) -- Programming range 0x00003D00 - 0x000053FF ( 23 Sectors, 5 KB) -- End of flash programming -- 0x2100 - 0x21FF (  1 Sector, 256 Bytes)
 -- 0x2500 - 0x27FF (  3 Sectors, 768 Bytes) -- 0x2900 - 0x2EFF (  6 Sectors, 1 KB) -- 0x3100 - 0x38FF (  8 Sectors, 2 KB) -- 0x3A00 - 0x3BFF (  2 Sectors, 512 Bytes) -- 0x3D00 - 0x53FF ( 23 Sectors, 5 KB) -- Start of verifying flash -- Use CRC or checksum calculation as verify method -- Use CRC or checksum calculation as verify method -- Use CRC or checksum calculation as verify method -- Use CRC or checksum calculation as verify method -- Use CRC or checksum calculation as verify method
 -- Use CRC or checksum calculation as verify method -- End of verifying flash -- Start of restoring -- Restoring RAMCode -- Restore target -- Restore memory -- Restoring CPU registers -- End of restoring -- Bank 0 @ 0x00000000: 6 ranges affected (11008 bytes) -- Total time needed: 0.205s (Prepare: 0.041s, Compare: 0.019s, Erase: 0.042s, Program: 0.092s, Verify: 0.005s, Restore: 0.003s)  returns 0x2B00 (0210ms, 17539ms total)
T0874 1012:421 JLINK_SetResetType(JLINKARM_CM3_RESET_TYPE_NORMAL)  returns JLINKARM_CM3_RESET_TYPE_NORMAL (0000ms, 17539ms total)
T0874 1012:421 JLINK_Reset() -- CPU_ReadMem(4 bytes @ 0x20000684) -- CPU_WriteMem(4 bytes @ 0x20000684) -- CPU_ReadMem(4 bytes @ 0xE000EDFC) -- CPU_WriteMem(4 bytes @ 0xE000EDFC) -- CPU_WriteMem(4 bytes @ 0xE000ED0C) -- CPU_ReadMem(4 bytes @ 0xE000EDF0) -- CPU_ReadMem(4 bytes @ 0x41002100) -- CPU_WriteMem(4 bytes @ 0xE000EDFC) -- CPU_WriteMem(4 bytes @ 0xE0002000) -- CPU_ReadMem(4 bytes @ 0xE000EDFC) -- CPU_ReadMem(4 bytes @ 0xE0001000) -- CPU_WriteMem(4 bytes @ 0xE0001000) (0010ms, 17549ms total)
T3DB0 1012:462 JLINK_SetResetType(JLINKARM_CM3_RESET_TYPE_NORMAL)  returns JLINKARM_CM3_RESET_TYPE_NORMAL (0000ms, 17549ms total)
T3DB0 1012:462 JLINK_Reset() -- CPU_ReadMem(4 bytes @ 0xE000EDFC) -- CPU_WriteMem(4 bytes @ 0xE000EDFC) -- CPU_WriteMem(4 bytes @ 0xE000ED0C) -- CPU_ReadMem(4 bytes @ 0xE000EDF0) -- CPU_ReadMem(4 bytes @ 0x41002100) -- CPU_WriteMem(4 bytes @ 0xE000EDFC) -- CPU_WriteMem(4 bytes @ 0xE0002000) -- CPU_ReadMem(4 bytes @ 0xE000EDFC) -- CPU_ReadMem(4 bytes @ 0xE0001000) -- CPU_WriteMem(4 bytes @ 0xE0001000) (0009ms, 17558ms total)
T3FB4 1012:471 JLINK_IsHalted()  returns TRUE (0000ms, 17558ms total)
T3FB4 1012:471 JLINK_GetMOEs(...) -- CPU_ReadMem(4 bytes @ 0xE000ED30)  returns 0x01 (0000ms, 17558ms total)
T3FB4 1012:471 JLINK_ReadReg(R15 (PC))  returns 0x00000288 (0000ms, 17558ms total)
T0874 1012:473 JLINK_ReadReg(R0)  returns 0x40001000 (0000ms, 17558ms total)
T0874 1012:473 JLINK_ReadReg(R1)  returns 0x00000000 (0000ms, 17558ms total)
T0874 1012:473 JLINK_ReadReg(R2)  returns 0x00000000 (0000ms, 17558ms total)
T0874 1012:473 JLINK_ReadReg(R3)  returns 0x2A500423 (0000ms, 17558ms total)
T0874 1012:473 JLINK_ReadReg(R4)  returns 0x20000664 (0000ms, 17558ms total)
T0874 1012:473 JLINK_ReadReg(R5)  returns 0x200006BC (0000ms, 17558ms total)
T0874 1012:473 JLINK_ReadReg(R6)  returns 0x200006BC (0000ms, 17558ms total)
T0874 1012:473 JLINK_ReadReg(R7)  returns 0x20002DB0 (0000ms, 17558ms total)
T0874 1012:473 JLINK_ReadReg(R8)  returns 0xBDFBEFFF (0000ms, 17558ms total)
T0874 1012:473 JLINK_ReadReg(R9)  returns 0xFFF732DF (0000ms, 17558ms total)
T0874 1012:473 JLINK_ReadReg(R10)  returns 0x7FEFEB73 (0000ms, 17558ms total)
T0874 1012:473 JLINK_ReadReg(R11)  returns 0x5DF7EFDF (0000ms, 17558ms total)
T0874 1012:473 JLINK_ReadReg(R12)  returns 0x200005D8 (0000ms, 17558ms total)
T0874 1012:473 JLINK_ReadReg(R13 (SP))  returns 0x20002DD8 (0000ms, 17558ms total)
T0874 1012:473 JLINK_ReadReg(R13 (SP))  returns 0x20002DD8 (0000ms, 17558ms total)
T0874 1012:473 JLINK_ReadReg(R14)  returns 0x2000032F (0000ms, 17558ms total)
T0874 1012:473 JLINK_ReadReg(R15 (PC))  returns 0x00000288 (0000ms, 17558ms total)
T0874 1012:473 JLINK_ReadReg(R15 (PC))  returns 0x00000288 (0000ms, 17558ms total)
T0874 1012:473 JLINK_ReadReg(APSR)  returns 0x20000000 (0000ms, 17558ms total)
T0874 1012:473 JLINK_ReadReg(MSP)  returns 0x20002DD8 (0000ms, 17558ms total)
T0874 1012:473 JLINK_ReadReg(PSP)  returns 0xFCF7B9A4 (0000ms, 17558ms total)
T0874 1012:473 JLINK_ReadReg(XPSR)  returns 0x21000000 (0000ms, 17558ms total)
T0874 1012:473 JLINK_ReadReg(IPSR)  returns 0x00000000 (0000ms, 17558ms total)
T0874 1012:473 JLINK_ReadReg(EPSR)  returns 0x01000000 (0000ms, 17558ms total)
T0874 1012:473 JLINK_ReadReg(PRIMASK)  returns 0x00000000 (0000ms, 17558ms total)
T0874 1012:473 JLINK_ReadReg(BASEPRI)  returns 0x00000000 (0000ms, 17558ms total)
T0874 1012:473 JLINK_ReadReg(R7)  returns 0x20002DB0 (0000ms, 17558ms total)
T0874 1012:473 JLINK_ReadReg(R15 (PC))  returns 0x00000288 (0000ms, 17558ms total)
T0874 1012:473 JLINK_ReadReg(R0)  returns 0x40001000 (0000ms, 17558ms total)
T0874 1012:473 JLINK_ReadReg(R1)  returns 0x00000000 (0000ms, 17558ms total)
T0874 1012:473 JLINK_ReadReg(R2)  returns 0x00000000 (0001ms, 17559ms total)
T0874 1012:474 JLINK_ReadReg(R3)  returns 0x2A500423 (0000ms, 17559ms total)
T0874 1012:474 JLINK_ReadReg(R4)  returns 0x20000664 (0000ms, 17559ms total)
T0874 1012:474 JLINK_ReadReg(R5)  returns 0x200006BC (0000ms, 17559ms total)
T0874 1012:474 JLINK_ReadReg(R6)  returns 0x200006BC (0000ms, 17559ms total)
T0874 1012:474 JLINK_ReadReg(R7)  returns 0x20002DB0 (0000ms, 17559ms total)
T0874 1012:474 JLINK_ReadReg(R8)  returns 0xBDFBEFFF (0000ms, 17559ms total)
T0874 1012:474 JLINK_ReadReg(R9)  returns 0xFFF732DF (0000ms, 17559ms total)
T0874 1012:474 JLINK_ReadReg(R10)  returns 0x7FEFEB73 (0000ms, 17559ms total)
T0874 1012:474 JLINK_ReadReg(R11)  returns 0x5DF7EFDF (0000ms, 17559ms total)
T0874 1012:474 JLINK_ReadReg(R12)  returns 0x200005D8 (0000ms, 17559ms total)
T0874 1012:474 JLINK_ReadReg(R13 (SP))  returns 0x20002DD8 (0000ms, 17559ms total)
T0874 1012:474 JLINK_ReadReg(R14)  returns 0x2000032F (0000ms, 17559ms total)
T0874 1012:474 JLINK_ReadReg(R15 (PC))  returns 0x00000288 (0000ms, 17559ms total)
T0874 1012:474 JLINK_ReadReg(APSR)  returns 0x20000000 (0000ms, 17559ms total)
T0874 1012:474 JLINK_ReadReg(MSP)  returns 0x20002DD8 (0000ms, 17559ms total)
T0874 1012:474 JLINK_ReadReg(PSP)  returns 0xFCF7B9A4 (0000ms, 17559ms total)
T0874 1012:474 JLINK_ReadReg(XPSR)  returns 0x21000000 (0000ms, 17559ms total)
T0874 1012:474 JLINK_ReadReg(IPSR)  returns 0x00000000 (0000ms, 17559ms total)
T0874 1012:474 JLINK_ReadReg(EPSR)  returns 0x01000000 (0000ms, 17559ms total)
T0874 1012:474 JLINK_ReadReg(PRIMASK)  returns 0x00000000 (0000ms, 17559ms total)
T0874 1012:474 JLINK_ReadReg(FAULTMASK)  returns 0x00000000 (0000ms, 17559ms total)
T0874 1012:474 JLINK_ReadReg(BASEPRI)  returns 0x00000000 (0000ms, 17559ms total)
T0874 1012:474 JLINK_ReadReg(CONTROL)  returns 0x00000000 (0000ms, 17559ms total)
T0874 1012:490 JLINK_ReadReg(R0)  returns 0x40001000 (0000ms, 17559ms total)
T0874 1012:490 JLINK_ReadReg(R1)  returns 0x00000000 (0000ms, 17559ms total)
T0874 1012:490 JLINK_ReadReg(R2)  returns 0x00000000 (0000ms, 17559ms total)
T0874 1012:490 JLINK_ReadReg(R3)  returns 0x2A500423 (0000ms, 17559ms total)
T0874 1012:490 JLINK_ReadReg(R4)  returns 0x20000664 (0000ms, 17559ms total)
T0874 1012:490 JLINK_ReadReg(R5)  returns 0x200006BC (0000ms, 17559ms total)
T0874 1012:490 JLINK_ReadReg(R6)  returns 0x200006BC (0000ms, 17559ms total)
T0874 1012:490 JLINK_ReadReg(R7)  returns 0x20002DB0 (0000ms, 17559ms total)
T0874 1012:490 JLINK_ReadReg(R8)  returns 0xBDFBEFFF (0000ms, 17559ms total)
T0874 1012:490 JLINK_ReadReg(R9)  returns 0xFFF732DF (0000ms, 17559ms total)
T0874 1012:490 JLINK_ReadReg(R10)  returns 0x7FEFEB73 (0000ms, 17559ms total)
T0874 1012:490 JLINK_ReadReg(R11)  returns 0x5DF7EFDF (0000ms, 17559ms total)
T0874 1012:490 JLINK_ReadReg(R12)  returns 0x200005D8 (0000ms, 17559ms total)
T0874 1012:490 JLINK_ReadReg(R13 (SP))  returns 0x20002DD8 (0000ms, 17559ms total)
T0874 1012:490 JLINK_ReadReg(R14)  returns 0x2000032F (0000ms, 17559ms total)
T0874 1012:490 JLINK_ReadReg(R15 (PC))  returns 0x00000288 (0000ms, 17559ms total)
T0874 1012:490 JLINK_ReadReg(APSR)  returns 0x20000000 (0000ms, 17559ms total)
T0874 1012:490 JLINK_ReadReg(MSP)  returns 0x20002DD8 (0000ms, 17559ms total)
T0874 1012:490 JLINK_ReadReg(PSP)  returns 0xFCF7B9A4 (0000ms, 17559ms total)
T0874 1012:490 JLINK_ReadReg(XPSR)  returns 0x21000000 (0000ms, 17559ms total)
T0874 1012:490 JLINK_ReadReg(IPSR)  returns 0x00000000 (0000ms, 17559ms total)
T0874 1012:490 JLINK_ReadReg(EPSR)  returns 0x01000000 (0000ms, 17559ms total)
T0874 1012:490 JLINK_ReadReg(PRIMASK)  returns 0x00000000 (0000ms, 17559ms total)
T0874 1012:490 JLINK_ReadReg(FAULTMASK)  returns 0x00000000 (0000ms, 17559ms total)
T0874 1012:490 JLINK_ReadReg(BASEPRI)  returns 0x00000000 (0000ms, 17559ms total)
T0874 1012:490 JLINK_ReadReg(CONTROL)  returns 0x00000000 (0000ms, 17559ms total)
T0874 1012:495 JLINK_ReadReg(R0)  returns 0x40001000 (0000ms, 17559ms total)
T0874 1012:495 JLINK_ReadReg(R1)  returns 0x00000000 (0000ms, 17559ms total)
T0874 1012:495 JLINK_ReadReg(R2)  returns 0x00000000 (0000ms, 17559ms total)
T0874 1012:495 JLINK_ReadReg(R3)  returns 0x2A500423 (0000ms, 17559ms total)
T0874 1012:495 JLINK_ReadReg(R4)  returns 0x20000664 (0000ms, 17559ms total)
T0874 1012:495 JLINK_ReadReg(R5)  returns 0x200006BC (0000ms, 17559ms total)
T0874 1012:495 JLINK_ReadReg(R6)  returns 0x200006BC (0000ms, 17559ms total)
T0874 1012:495 JLINK_ReadReg(R7)  returns 0x20002DB0 (0000ms, 17559ms total)
T0874 1012:495 JLINK_ReadReg(R8)  returns 0xBDFBEFFF (0000ms, 17559ms total)
T0874 1012:495 JLINK_ReadReg(R9)  returns 0xFFF732DF (0000ms, 17559ms total)
T0874 1012:495 JLINK_ReadReg(R10)  returns 0x7FEFEB73 (0000ms, 17559ms total)
T0874 1012:495 JLINK_ReadReg(R11)  returns 0x5DF7EFDF (0000ms, 17559ms total)
T0874 1012:495 JLINK_ReadReg(R12)  returns 0x200005D8 (0000ms, 17559ms total)
T0874 1012:495 JLINK_ReadReg(R13 (SP))  returns 0x20002DD8 (0000ms, 17559ms total)
T0874 1012:495 JLINK_ReadReg(R14)  returns 0x2000032F (0000ms, 17559ms total)
T0874 1012:495 JLINK_ReadReg(R15 (PC))  returns 0x00000288 (0000ms, 17559ms total)
T0874 1012:495 JLINK_ReadReg(APSR)  returns 0x20000000 (0000ms, 17559ms total)
T0874 1012:495 JLINK_ReadReg(MSP)  returns 0x20002DD8 (0000ms, 17559ms total)
T0874 1012:495 JLINK_ReadReg(PSP)  returns 0xFCF7B9A4 (0000ms, 17559ms total)
T0874 1012:495 JLINK_ReadReg(XPSR)  returns 0x21000000 (0000ms, 17559ms total)
T0874 1012:495 JLINK_ReadReg(IPSR)  returns 0x00000000 (0000ms, 17559ms total)
T0874 1012:495 JLINK_ReadReg(EPSR)  returns 0x01000000 (0000ms, 17559ms total)
T0874 1012:495 JLINK_ReadReg(PRIMASK)  returns 0x00000000 (0000ms, 17559ms total)
T0874 1012:495 JLINK_ReadReg(FAULTMASK)  returns 0x00000000 (0000ms, 17559ms total)
T0874 1012:495 JLINK_ReadReg(BASEPRI)  returns 0x00000000 (0000ms, 17559ms total)
T0874 1012:495 JLINK_ReadReg(CONTROL)  returns 0x00000000 (0000ms, 17559ms total)
T0874 1012:500 JLINK_ReadReg(R0)  returns 0x40001000 (0000ms, 17559ms total)
T0874 1012:500 JLINK_ReadReg(R1)  returns 0x00000000 (0000ms, 17559ms total)
T0874 1012:500 JLINK_ReadReg(R2)  returns 0x00000000 (0000ms, 17559ms total)
T0874 1012:500 JLINK_ReadReg(R3)  returns 0x2A500423 (0000ms, 17559ms total)
T0874 1012:500 JLINK_ReadReg(R4)  returns 0x20000664 (0000ms, 17559ms total)
T0874 1012:500 JLINK_ReadReg(R5)  returns 0x200006BC (0000ms, 17559ms total)
T0874 1012:500 JLINK_ReadReg(R6)  returns 0x200006BC (0000ms, 17559ms total)
T0874 1012:500 JLINK_ReadReg(R7)  returns 0x20002DB0 (0000ms, 17559ms total)
T0874 1012:500 JLINK_ReadReg(R8)  returns 0xBDFBEFFF (0000ms, 17559ms total)
T0874 1012:500 JLINK_ReadReg(R9)  returns 0xFFF732DF (0000ms, 17559ms total)
T0874 1012:500 JLINK_ReadReg(R10)  returns 0x7FEFEB73 (0000ms, 17559ms total)
T0874 1012:500 JLINK_ReadReg(R11)  returns 0x5DF7EFDF (0000ms, 17559ms total)
T0874 1012:500 JLINK_ReadReg(R12)  returns 0x200005D8 (0000ms, 17559ms total)
T0874 1012:500 JLINK_ReadReg(R13 (SP))  returns 0x20002DD8 (0000ms, 17559ms total)
T0874 1012:500 JLINK_ReadReg(R14)  returns 0x2000032F (0000ms, 17559ms total)
T0874 1012:500 JLINK_ReadReg(R15 (PC))  returns 0x00000288 (0000ms, 17559ms total)
T0874 1012:500 JLINK_ReadReg(APSR)  returns 0x20000000 (0000ms, 17559ms total)
T0874 1012:500 JLINK_ReadReg(MSP)  returns 0x20002DD8 (0000ms, 17559ms total)
T0874 1012:500 JLINK_ReadReg(PSP)  returns 0xFCF7B9A4 (0000ms, 17559ms total)
T0874 1012:500 JLINK_ReadReg(XPSR)  returns 0x21000000 (0000ms, 17559ms total)
T0874 1012:500 JLINK_ReadReg(IPSR)  returns 0x00000000 (0000ms, 17559ms total)
T0874 1012:500 JLINK_ReadReg(EPSR)  returns 0x01000000 (0000ms, 17559ms total)
T0874 1012:500 JLINK_ReadReg(PRIMASK)  returns 0x00000000 (0000ms, 17559ms total)
T0874 1012:500 JLINK_ReadReg(FAULTMASK)  returns 0x00000000 (0000ms, 17559ms total)
T0874 1012:500 JLINK_ReadReg(BASEPRI)  returns 0x00000000 (0000ms, 17559ms total)
T0874 1012:500 JLINK_ReadReg(CONTROL)  returns 0x00000000 (0000ms, 17559ms total)
T0874 1012:642 JLINK_ReadMemHW(0x00000194, 0x00F4 Bytes, ...) -- CPU_ReadMem(244 bytes @ 0x00000194) - Data: 5B B2 00 2B FB DB 70 47 00 0C 00 40 10 23 02 49 ...  returns 0x00 (0002ms, 17561ms total)
T0874 1012:653 JLINK_ReadMemHW(0x00000288, 0x0078 Bytes, ...) -- CPU_ReadMem(120 bytes @ 0x00000288) - Data: 20 48 21 49 70 B5 00 23 88 42 33 D1 00 21 1F 4B ...  returns 0x00 (0001ms, 17562ms total)
T0874 1012:658 JLINK_ReadMemHW(0x000002C4, 0x0078 Bytes, ...) -- CPU_ReadMem(120 bytes @ 0x000002C4) - Data: 23 43 C3 70 18 4B 98 7B B0 43 06 00 20 20 30 43 ...  returns 0x00 (0002ms, 17564ms total)
T3FB4 1012:673 JLINK_IsHalted()  returns TRUE (0000ms, 17564ms total)
T0874 1012:674 JLINK_ReadMemHW(0x00000000, 0x0132 Bytes, ...) -- CPU_ReadMem(306 bytes @ 0x00000000) - Data: D8 2D 00 20 89 02 00 00 85 02 00 00 87 02 00 00 ...  returns 0x00 (0003ms, 17567ms total)
T0874 1012:706 JLINK_ReadMemHW(0x00000132, 0x0036 Bytes, ...) -- CPU_ReadMem(54 bytes @ 0x00000132) - Data: FC D5 A4 00 A4 46 00 24 0D 59 05 51 04 34 64 45 ...  returns 0x00 (0000ms, 17567ms total)
T0874 1012:714 JLINK_ReadMemHW(0x00000168, 0x0050 Bytes, ...) -- CPU_ReadMem(80 bytes @ 0x00000168) - Data: 0D 00 52 00 E9 58 E0 58 81 42 03 D1 04 33 93 42 ...  returns 0x00 (0001ms, 17568ms total)
T0874 1012:726 JLINK_ReadMem (0x42001800, 0x0004 Bytes, ...) -- CPU_ReadMem(4 bytes @ 0x42001800) - Data: 00 00 00 00  returns 0x00 (0000ms, 17568ms total)
T0874 1012:747 JLINK_ReadMem (0x42001804, 0x0004 Bytes, ...) -- CPU_ReadMem(4 bytes @ 0x42001804) - Data: 00 00 00 00  returns 0x00 (0001ms, 17569ms total)
T0874 1012:751 JLINK_ReadMem (0x4200180C, 0x0002 Bytes, ...) -- CPU_ReadMem(2 bytes @ 0x4200180C) - Data: 00 00  returns 0x00 (0001ms, 17570ms total)
T0874 1012:757 JLINK_ReadMem (0x4200180E, 0x0001 Bytes, ...) -- CPU_ReadMem(1 bytes @ 0x4200180E) - Data: 00  returns 0x00 (0001ms, 17571ms total)
T0874 1012:761 JLINK_ReadMem (0x42001814, 0x0001 Bytes, ...) -- CPU_ReadMem(1 bytes @ 0x42001814) - Data: 00  returns 0x00 (0000ms, 17571ms total)
T0874 1012:764 JLINK_ReadMem (0x42001816, 0x0001 Bytes, ...) -- CPU_ReadMem(1 bytes @ 0x42001816) - Data: 00  returns 0x00 (0000ms, 17571ms total)
T0874 1012:769 JLINK_ReadMem (0x42001818, 0x0001 Bytes, ...) -- CPU_ReadMem(1 bytes @ 0x42001818) - Data: 00  returns 0x00 (0000ms, 17571ms total)
T0874 1012:773 JLINK_ReadMem (0x4200181A, 0x0002 Bytes, ...) -- CPU_ReadMem(2 bytes @ 0x4200181A) - Data: 00 00  returns 0x00 (0000ms, 17571ms total)
T0874 1012:777 JLINK_ReadMem (0x4200181C, 0x0004 Bytes, ...) -- CPU_ReadMem(4 bytes @ 0x4200181C) - Data: 00 00 00 00  returns 0x00 (0000ms, 17571ms total)
T0874 1012:779 JLINK_ReadMem (0x42001828, 0x0002 Bytes, ...) -- CPU_ReadMem(2 bytes @ 0x42001828) - Data: 00 00  returns 0x00 (0000ms, 17571ms total)
T0874 1012:785 JLINK_ReadMem (0x42001830, 0x0001 Bytes, ...) -- CPU_ReadMem(1 bytes @ 0x42001830) - Data: 00  returns 0x00 (0000ms, 17571ms total)
T3FB4 1012:875 JLINK_IsHalted()  returns TRUE (0000ms, 17571ms total)
T3FB4 1013:076 JLINK_IsHalted()  returns TRUE (0000ms, 17571ms total)
T3FB4 1013:277 JLINK_IsHalted()  returns TRUE (0000ms, 17571ms total)
T3FB4 1013:478 JLINK_IsHalted()  returns TRUE (0000ms, 17571ms total)
T3FB4 1013:680 JLINK_IsHalted()  returns TRUE (0000ms, 17571ms total)
T3FB4 1013:881 JLINK_IsHalted()  returns TRUE (0000ms, 17571ms total)
T3FB4 1014:083 JLINK_IsHalted()  returns TRUE (0000ms, 17571ms total)
T3FB4 1014:285 JLINK_IsHalted()  returns TRUE (0000ms, 17571ms total)
T3FB4 1014:486 JLINK_IsHalted()  returns TRUE (0000ms, 17571ms total)
T3DB0 1014:506 JLINK_ReadReg(R15 (PC))  returns 0x00000288 (0000ms, 17571ms total)
T3DB0 1014:506 JLINK_Go() -- CPU_ReadMem(4 bytes @ 0xE0001000) -- CPU_WriteMem(4 bytes @ 0xE000ED30) -- CPU_WriteMem(4 bytes @ 0xE0001000) -- CPU_WriteMem(4 bytes @ 0xE0001004) (0002ms, 17573ms total)
T3FB4 1014:508 JLINK_IsHalted() -- CPU_ReadMem(4 bytes @ 0x41002100)  returns FALSE (0001ms, 17574ms total)
T3FB4 1014:551 JLINK_IsHalted() -- CPU_ReadMem(4 bytes @ 0x41002100)  returns FALSE (0000ms, 17573ms total)
T3FB4 1014:711 JLINK_IsHalted() -- CPU_ReadMem(4 bytes @ 0x41002100)  returns FALSE (0000ms, 17573ms total)
T3FB4 1014:913 JLINK_IsHalted() -- CPU_ReadMem(4 bytes @ 0x41002100)  returns FALSE (0000ms, 17573ms total)
T3FB4 1015:119 JLINK_IsHalted() -- CPU_ReadMem(4 bytes @ 0x41002100)  returns FALSE (0000ms, 17573ms total)
T3FB4 1015:320 JLINK_IsHalted() -- CPU_ReadMem(4 bytes @ 0x41002100)  returns FALSE (0000ms, 17573ms total)
T3FB4 1015:521 JLINK_IsHalted() -- CPU_ReadMem(4 bytes @ 0x41002100)  returns FALSE (0000ms, 17573ms total)
T3FB4 1015:721 JLINK_IsHalted() -- CPU_ReadMem(4 bytes @ 0x41002100)  returns FALSE (0000ms, 17573ms total)
T3FB4 1015:921 JLINK_IsHalted() -- CPU_ReadMem(4 bytes @ 0x41002100)  returns FALSE (0000ms, 17573ms total)
T3FB4 1016:123 JLINK_IsHalted() -- CPU_ReadMem(4 bytes @ 0x41002100)  returns FALSE (0000ms, 17573ms total)
T3FB4 1016:323 JLINK_IsHalted() -- CPU_ReadMem(4 bytes @ 0x41002100)  returns FALSE (0000ms, 17573ms total)
T3FB4 1016:525 JLINK_IsHalted() -- CPU_ReadMem(4 bytes @ 0x41002100)  returns FALSE (0000ms, 17573ms total)
T3FB4 1016:726 JLINK_IsHalted() -- CPU_ReadMem(4 bytes @ 0x41002100)  returns FALSE (0000ms, 17573ms total)
T3FB4 1016:927 JLINK_IsHalted() -- CPU_ReadMem(4 bytes @ 0x41002100)  returns FALSE (0000ms, 17573ms total)
T3FB4 1017:129 JLINK_IsHalted() -- CPU_ReadMem(4 bytes @ 0x41002100)  returns FALSE (0000ms, 17573ms total)
T3FB4 1017:330 JLINK_IsHalted() -- CPU_ReadMem(4 bytes @ 0x41002100)  returns FALSE (0000ms, 17573ms total)
T3FB4 1017:531 JLINK_IsHalted() -- CPU_ReadMem(4 bytes @ 0x41002100)  returns FALSE (0000ms, 17573ms total)
